#Digilent WaveForms Network Analyzer - Bode
#Device Name: Discovery2
#Serial Number: SN:210321A1882E
#Date Time: 2016-10-22 18:43::04.705

Frequency (Hz),Channel 2 (dB),Channel 2 (deg)
1000,-51.039482739526512,56.296296020470784
1046.0921843687374,-51.313238429687381,1.6784859156943526
1092.1843687374749,-52.435666242726732,-51.545939218530208
1138.2765531062125,-54.812954153123336,-106.96296920776321
1184.36873747495,-59.358562070715998,-163.58336336211653
1230.4609218436874,-70.231233213075654,144.29472923429552
1276.5531062124248,-67.963879098878024,-84.796764907906422
1322.6452905811623,-59.229352986668971,-147.13212299351363
1368.7374749498997,-55.095225830022088,153.73599570519855
1414.8296593186374,-52.541211202423945,98.268578233737301
1460.9218436873748,-51.272268446018664,42.094938229083638
1507.0140280561122,-50.885909821500505,-11.911965629199443
1553.1062124248497,-51.42195214886214,-65.579209930276562
1599.1983967935871,-52.774152265804666,-121.82863151795286
1645.2905811623245,-55.371123451811819,-177.00486301572232
1691.3827655310622,-60.570065348374612,124.02220570760124
1737.4749498997996,-73.999594686046521,57.202570585620037
1783.5671342685371,-65.702375344063626,-160.64932367768253
1829.6593186372745,-57.937776143935245,139.0157348517383
1875.7515030060119,-54.396428481211863,81.970595103591037
1921.8436873747496,-52.082457521037561,27.786395888560492
1967.935871743487,-51.205585520936062,-26.306958521002258
2014.0280561122245,-51.039736825313952,-80.611505937793908
2060.1202404809619,-51.815683756459613,-135.1052346881032
2106.2124248496993,-53.562707825383342,167.99716308072655
2152.3046092184368,-56.523905928516655,110.99016727734956
2198.3967935871742,-62.018223269640202,50.805978674732671
2244.4889779559117,-81.864761487480891,-57.44892639902524
2290.5811623246491,-63.324650502679027,125.01200838708232
2336.673346693387,-56.481959156719782,67.589101661206129
2382.7655310621244,-53.284603265145911,14.537294303347728
2428.8577154308618,-51.6699892771721,-40.58945190302137
2474.9498997995993,-51.007143781073388,-94.798660544377654
2521.0420841683367,-51.285250195645609,-150.76598613151654
2567.1342685370741,-52.386825596667968,152.75967729846337
2613.2264529058116,-54.164038713330271,96.678030298586179
2659.318637274549,-57.52780336349025,38.868292942034735
2705.4108216432865,-64.732746502626938,-14.223535138753647
2751.5030060120239,-74.94463045364239,116.86838830975475
2797.5951903807613,-59.683901650366934,51.642565025487471
2843.6873747494992,-54.742932352302191,-0.85146609211157909
2889.7795591182366,-52.569310654708531,-54.36374767099695
2935.8717434869741,-51.414446029438949,-108.63547319900196
2981.9639278557115,-51.16681517209252,-164.39152294647303
3028.056112224449,-51.722674869460796,139.35113096553266
3074.1482965931864,-52.964927708218354,82.429881747957012
3120.2404809619238,-55.138497703789248,25.441834415472385
3166.3326653306613,-59.323893352555118,-28.841937933107381
3212.4248496993987,-71.049906446012116,-74.373063447711019
3258.5170340681361,-64.418636530651213,36.508845475665176
3304.6092184368736,-57.095979581261673,-14.271734819304314
3350.701402805611,-53.671983367353683,-69.083417354872267
3396.7935871743489,-52.100373372551573,-123.70249290078283
3442.8857715430863,-51.442471270535833,-179.85342803838876
3488.9779559118238,-51.345474397289095,124.83974296214062
3535.0701402805612,-52.141045108673516,67.49638228384579
3581.1623246492986,-53.576111316374195,12.013029827265314
3627.2545090180361,-56.758573881452463,-42.087064747736918
3673.3466933867735,-63.479966732440509,-95.343472099882689
3719.4388777555109,-74.663737479037806,14.232261530062488
3765.5310621242484,-59.664036125779056,-29.855185535744454
3811.6232464929858,-55.190891088041887,-83.036164639765616
3857.7154308617232,-52.712921109220922,-136.85341459521473
3903.8076152304611,-51.518998071076673,166.34138087219463
3949.8997995991986,-51.510755829470227,110.68490093597413
3995.991983967936,-51.621086775466431,53.483229596276992
4042.0841683366734,-52.58330761272515,-1.7322117230156664
4088.1763527054109,-55.085764843047485,-55.860526314358268
4134.2685370741483,-59.899676680273977,-108.16193778158836
4180.3607214428857,-77.764578894892864,-132.05185664572252
4226.4529058116232,-62.384916771189502,-45.256678109201268
4272.5450901803606,-56.456976382177459,-95.183564698947009
4318.637274549098,-53.442326977612417,-152.23302695467723
4364.7294589178355,-51.918919809191117,152.40355136903543
4410.8216432865729,-51.339199915369285,94.774130690567191
4456.9138276553103,-51.260953421764938,40.295655262189229
4503.0060120240478,-52.099513132040251,-15.492135620526312
4549.0981963927852,-54.151727688179491,-69.510539367350731
4595.1903807615226,-58.341718235014184,-122.29909716210872
4641.2825651302601,-70.4316562754437,-174.64699254524885
4687.3747494989984,-65.231897814432713,-60.983003723512745
4733.4669338677359,-57.256707826813305,-110.3877160277496
4779.5591182364733,-54.130349330499257,-166.33196016457646
4825.6513026052107,-52.23924681686335,137.63929919291496
4871.7434869739482,-51.236227073552051,80.650742585879385
4917.8356713426856,-51.17594042771934,24.687914697731863
4963.927855711423,-51.903922831022598,-30.851132294545238
5010.0200400801605,-53.808032587320881,-84.007997271722118
5056.1122244488979,-57.928941182892679,-136.17447230810939
5102.2044088176353,-68.009121842379713,172.5528180108316
5148.2965931863728,-66.97214254355309,-69.908522100547785
5194.3887775551102,-57.827628989211355,-123.44366843864081
5240.4809619238476,-54.395617499552628,179.58303905995894
5286.5731462925851,-52.32641323960901,123.26600137104833
5332.6653306613225,-51.42230139292942,66.08076828467803
5378.7575150300599,-51.18982358920217,10.877991842906951
5424.8496993987974,-52.216479742464593,-43.769285933861113
5470.9418837675348,-54.20309983515493,-97.599841602687022
5517.0340681362723,-58.316544467335653,-151.0781166817801
5563.1262525050097,-70.8696927874675,163.25606262873509
5609.2184368737471,-64.448600842151507,-82.401274393410475
5655.3106212424846,-56.595270194882495,-138.61056679106275
5701.402805611222,-53.525324885018627,164.72302244506915
5747.4949899799603,-51.837993196829402,108.73951062981476
5793.5871743486978,-51.190603517169244,52.061110980012202
5839.6793587174352,-51.430913668516169,-3.5191587146379533
5885.7715430861726,-52.82756864778262,-59.476141704862428
5931.8637274549101,-55.765529567148121,-113.2913533942567
5977.9559118236475,-62.710045603341932,-165.46223781845345
6024.0480961923849,-76.158061854829725,-46.337506189945088
6070.1402805611224,-58.311900495233012,-99.820155066697708
6116.2324649298598,-54.124958061936212,-153.32664295052265
6162.3246492985973,-52.156748144864544,151.50748561752394
6208.4168336673347,-51.216503785842932,94.179425540861587
6254.5090180360721,-51.469908039258989,38.547654163234611
6300.6012024048096,-52.812428950376429,-17.672442354284222
6346.693386773547,-56.273115671726487,-74.002392843698999
6392.7855711422844,-64.506093572207362,-126.31739326633654
6438.8777555110219,-66.476076052900325,-8.9932381088892299
6484.9699398797593,-56.259157437148616,-58.564506704893518
6531.0621242484967,-52.460411249605094,-112.99044032496363
6577.1543086172342,-51.262527645706264,-167.41005012731
6623.2464929859716,-51.410265377422135,135.57017108530894
6669.338677354709,-53.427804600545102,80.910608593373382
6715.4308617234465,-58.421601316395346,21.316258783731861
6761.5230460921848,-89.078329747278119,127.49821801361955
6807.6152304609222,-56.838815790113252,92.47971215957466
6853.7074148296597,-52.192753438949445,36.994303384448799
6899.7995991983971,-51.350462334303266,-19.299906931430399
6945.8917835671346,-56.318764039012997,-72.175949314674213
6991.983967935872,-55.094191454274608,52.297101157919428
7038.0761523046094,-41.715866695206707,-3.7114637033974134
7084.1683366733469,-34.85491530114745,-59.064286186445351
7130.2605210420843,-29.782144923759123,-114.23938536220058
7176.3527054108217,-25.689272823495855,-169.63276431466741
7222.4448897795592,-22.270888675673959,134.90267993515974
7268.5370741482966,-19.33119277549072,79.465549018997478
7314.629258517034,-16.754238928640895,24.003561028475879
7360.7214428857715,-14.496247787939197,-31.434090125464678
7406.8136272545089,-12.494567215406267,-86.8500660731479
7452.9058116232463,-10.717383584043553,-142.27625666526123
7498.9979959919838,-9.1416113283757419,162.29044108450131
7545.0901803607212,-7.7407332523290693,106.86887716039368
7591.1823647294586,-6.4989033813724992,51.433165357071033
7637.2745490981961,-5.4050165146465883,-4.000669680851729
7683.3667334669335,-4.4475270321391749,-59.435692610990273
7729.4589178356709,-3.6162339215701622,-114.86392118867013
7775.5511022044084,-2.904425791858074,-170.28816776538892
7821.6432865731467,-2.2998052576852288,134.28342563521261
7867.7354709418842,-1.7985590003547225,78.850451488881134
7913.8276553106216,-1.389616365411966,23.418049271648478
7959.919839679359,-1.0681065903499196,-32.027833409586229
8006.0120240480965,-0.82314497943866927,-87.453069015913456
8052.1042084168339,-0.65238968858443303,-142.87144887528675
8098.1963927855713,-0.54390953399831332,161.70351081466012
8144.2885771543088,-0.48899539568711653,106.26866741310306
8190.3807615230462,-0.4781757058198367,50.833897641125716
8236.4729458917827,-0.50178080303646355,-4.5985101394696315
8282.5651302605202,-0.54978328861774106,-60.036257801500469
8328.6573146292594,-0.61392876132768326,-115.46795741554547
8374.7494989979969,-0.68210979090397361,-170.88826420843998
8420.8416833667343,-0.74752125571207317,133.68381670324808
8466.9338677354717,-0.80063165067466435,78.253257861262014
8513.0260521042092,-0.83750669301194269,22.812386302466678
8559.1182364729466,-0.85494430365403351,-32.620568446960988
8605.210420841684,-0.85144621579391888,-88.049442985818061
8651.3026052104215,-0.8283372301963009,-143.47287040580235
8697.3947895791589,-0.78962599333534411,161.08813968701318
8743.4869739478963,-0.73797801507045879,105.66815129772776
8789.5791583166338,-0.68107740138149464,50.228779685897948
8835.6713426853712,-0.62263201529963963,-5.2088677602177604
8881.7635270541086,-0.56995942960893242,-60.63782492687406
8927.8557114228461,-0.52665972872954903,-116.07150756096708
8973.9478957915835,-0.49551758427775322,-171.50908128676301
9020.0400801603209,-0.48271035784846961,133.08353074728618
9066.1322645290584,-0.48509723942581739,77.644063934516041
9112.2244488977958,-0.50340091542352394,22.20712044970162
9158.3166332665332,-0.53683385707320164,-33.225611461454079
9204.4088176352707,-0.5808510102163259,-88.654875960010102
9250.5010020040081,-0.63437825134120795,-144.08436973693011
9296.5931863727455,-0.690362143058462,160.48033970287707
9342.685370741483,-0.74482708912820828,105.05645233416855
9388.7775551102204,-0.79005805496463044,49.620817784281094
9434.8697394789579,-0.82625418679191664,-5.8105200441262923
9480.9619238476953,-0.84874264289991186,-61.246937306323147
9527.0541082164327,-0.85244696309510559,-116.67359604658721
9573.1462925851702,-0.84222621231260675,-172.11920278475043
9619.2384769539076,-0.81512798755229932,132.45822650545313
9665.330661322645,-0.77436504274136986,77.024310953056656
9711.4228456913825,-0.72423925615364793,21.592149052318163
9757.5150300601199,-0.66994578516226322,-33.841080032900493
9803.6072144288573,-0.61334258005381104,-89.271871249059018
9849.6993987975948,-0.56379236367611041,-144.70017917162244
9895.7915831663322,-0.52119712045382993,159.87015548762923
9941.8837675350696,-0.49276302020634388,104.43287653957771
9987.9759519038071,-0.4774272480144916,49.004764119894091
10034.068136272545,-0.4771472223277371,-6.4394481764616387
10080.160320641282,-0.49039536931062128,-61.877254437212486
10126.252505010019,-0.52211530784453408,-117.30179713070773
10172.344689378757,-0.56506490653671304,-172.73716396416572
10218.436873747494,-0.61399292275068573,131.84596819069168
10264.529058116232,-0.66903821246520079,76.398892246445314
10310.621242484969,-0.72331596225691286,20.975232635038935
10356.713426853707,-0.77306048708396846,-34.472813782698239
10402.805611222444,-0.8137256601477435,-89.903595341349998
10448.897795591183,-0.84066691795471837,-145.33521902869427
10494.989979959921,-0.85461520283252468,159.23377481869281
10541.082164328658,-0.84915815600214439,103.81595053118603
10587.174348697396,-0.82995668437650461,48.37646181456951
10633.266533066133,-0.79330186944455727,-7.0601812461298152
10679.35871743487,-0.75024721928547078,-62.499865023017719
10725.450901803608,-0.69733458347616917,-117.9273562446712
10771.543086172345,-0.64376134062409018,-173.35673376550108
10817.635270541083,-0.59136811917516852,131.20948993800931
10863.72745490982,-0.54771103881704764,75.766980117140349
10909.819639278558,-0.51194801396678202,20.331497178645307
10955.911823647295,-0.49039170603545457,-35.103517820084306
11002.004008016032,-0.48259320750109769,-90.537322269297718
11048.09619238477,-0.49345643247237125,-145.95493558737343
11094.188376753507,-0.51636252587987341,158.60930073172142
11140.280561122245,-0.55463935432944744,103.18521960809998
11186.372745490982,-0.5997432452887681,47.728945078643797
11232.46492985972,-0.65289107131459367,-7.7039026096297363
11278.557114228457,-0.70736105784989745,-63.132106418574423
11324.649298597195,-0.7596945826810898,-118.57051943184699
11370.741482965932,-0.80544176837056192,-174.00293289610846
11416.833667334669,-0.84033446377267274,130.57215843137149
11462.925851703407,-0.86016324761029839,75.134328904615771
11509.018036072144,-0.86394609645016629,19.700355984881156
11555.110220440882,-0.85084626830699228,-35.742246226534888
11601.202404809619,-0.82333922243143365,-91.165191161634851
11647.294589178357,-0.78407498685376031,-146.60303868633434
11693.386773547094,-0.73519698010550716,157.96503226957159
11739.478957915831,-0.68079099056130044,102.53189182918246
11785.571142284569,-0.62639595879095145,47.088523395522529
11831.663326653306,-0.57644907048231309,-8.3388360285754857
11877.755511022044,-0.53526350392802458,-63.785633850487088
11923.847695390781,-0.50481770975369733,-119.2056557147781
11969.939879759519,-0.48936214421933749,-174.6469284277145
12016.032064128256,-0.49064847757218999,129.91603729580495
12062.124248496993,-0.50711414930370113,74.478613860792152
12108.216432865731,-0.5380298823295937,19.037896257382627
12154.308617234468,-0.57977094625487469,-36.385605303591149
12200.400801603206,-0.63222846505787622,-91.827574487066457
12246.492985971943,-0.68501449032971184,-147.27185824513717
12292.585170340681,-0.74040844461193078,157.31571021005908
12338.677354709418,-0.78822979392908843,101.87896636626766
12384.769539078156,-0.82728372810646145,46.441532869959183
12430.861723446893,-0.852411710223275,-9.0052064072378961
12476.95390781563,-0.86357435757429934,-64.440026747284719
12523.04609218437,-0.85716351145328873,-119.8698020878214
12569.138276553107,-0.83648797498793093,-175.30701181445804
12615.230460921844,-0.79905069334021062,129.25748380968656
12661.322645290582,-0.75224964496306501,73.820083535871518
12707.414829659319,-0.69900032741385421,18.381088351897347
12753.507014028057,-0.64100797606830273,-37.054214227944527
12799.599198396794,-0.58723634066928043,-92.497212000860813
12845.691382765532,-0.54329672573784893,-147.91728342571417
12891.783567134269,-0.51140457463708988,156.64115120336214
12937.875751503007,-0.49376334816214157,101.20778340685771
12983.967935871744,-0.49138301678754287,45.775820716367946
13030.060120240481,-0.50651559290201653,-9.680841857133732
13076.152304609219,-0.53789085058787467,-65.111205306080635
13122.244488977956,-0.5831412947424246,-120.53538568838628
13168.336673346694,-0.63829766543909572,-175.9800844544236
13214.428857715431,-0.6964671177112125,128.58773024331447
13260.521042084169,-0.75306330832179758,73.154395263926631
13306.613226452906,-0.80479296094253883,17.717231505972208
13352.705410821643,-0.84266687079024793,-37.725772727697183
13398.797595190381,-0.86375584862875177,-93.170088830357429
13444.889779559118,-0.86627320740249203,-148.58932917772296
13490.981963927856,-0.84930270254261619,155.95936548807026
13537.074148296593,-0.81229377831374938,100.53033807314186
13583.166332665331,-0.75764455470825798,45.089206577764195
13629.258517034068,-0.69261335048546491,-10.346027042297663
13675.350701402805,-0.62260663706845798,-65.789677578333311
13721.442885771543,-0.56097377609686938,-121.2075805503766
13767.53507014028,-0.51326699181076563,-176.64625027397815
13813.627254509018,-0.49024349243643817,127.90805210328341
13859.719438877755,-0.50475355517812015,72.461622320757215
13905.811623246493,-0.56295420416357023,17.036497354600101
13951.90380761523,-0.6760148842737782,-38.410080179891622
13997.995991983968,-0.85309797991133141,-93.858207833499392
14044.088176352705,-1.101319768835485,-149.28522320545346
14090.180360721442,-1.4289487510587648,155.28978740130026
14136.27254509018,-1.8453849607677271,99.847900888308743
14182.364729458917,-2.3541023205586353,44.403109126645816
14228.456913827655,-2.9674500908431045,-11.039233803570909
14274.549098196392,-3.6853511037812194,-66.463855076199295
14320.64128256513,-4.5264074794215032,-121.89945572683388
14366.733466933867,-5.493827156037109,-177.33532162337949
14412.825651302604,-6.5981280166533409,127.21921751890659
14458.917835671342,-7.8493750134460951,71.761507877244497
14505.010020040079,-9.2607240155793651,16.322795360757212
14551.102204408817,-10.854338473818245,-39.108082243835852
14597.194388777556,-12.643780926565656,-94.553916557435599
14643.286573146293,-14.665180957777531,-149.98626109794907
14689.378757515031,-16.945734608823056,154.62283710204741
14735.470941883768,-19.548504490705049,99.142726837944082
14781.563126252506,-22.526113092587227,43.675598939774773
14827.655310621243,-25.983913353961324,-11.799481585274801
14873.747494989981,-30.161792260683544,-67.245778056839853
14919.839679358718,-35.311939852997433,-122.54779696063501
14965.931863727455,-42.569784296819662,-177.78338388467142
15012.024048096193,-56.551827657982003,131.03332143175314
15058.11623246493,-56.099150572612281,-111.96332236381255
15104.208416833668,-51.343901065791819,-163.20905007911534
15150.300601202405,-52.74836521428179,142.21839464907202
15196.392785571143,-58.041572505545872,83.18776992279146
15242.48496993988,-78.121729718708565,-154.98416454239765
15288.577154308618,-58.029996729797475,155.42272294176018
15334.669338677355,-53.211826772312314,100.97724823455118
15380.761523046092,-51.89844573859525,42.578739098048814
15426.85370741483,-51.881966260210575,-15.370317588702299
15472.945891783567,-53.317030151464969,-70.75560218553791
15519.038076152305,-56.968022558722311,-124.84582057547195
15565.130260521042,-66.166994966632203,-176.29642327984226
15611.22244488978,-66.215940886521295,-62.751005413487121
15657.314629258517,-56.255884256011171,-112.20375818671793
15703.406813627254,-53.035756081593512,-163.1111717208455
15749.498997995992,-51.727500230421754,141.01754547849075
15795.591182364729,-51.836908942243433,84.466863141944557
15841.683366733467,-52.851070578143613,28.40775972795393
15887.775551102204,-55.017437811545463,-33.700472755894609
15933.867735470942,-59.572915366509847,-85.157523786101024
15979.959919839679,-72.153330134800811,-136.23415395353186
16026.052104208416,-63.666441114325103,-18.630542552542963
16072.144288577154,-56.217382915933342,-71.761277047994867
16118.236472945891,-52.75284585826369,-124.33106411588255
16164.328657314629,-51.858304030090139,-178.13645002458105
16210.420841683366,-51.472561381873909,127.24646137688578
16256.513026052104,-52.578583136386342,69.129188051523357
