#Digilent WaveForms Network Analyzer - Bode
#Device Name: Discovery2
#Serial Number: SN:210321A1882E
#Date Time: 2016-11-03 20:52::38.182

Frequency (Hz),Channel 2 (dB),Channel 2 (deg)
1000,-0.14691701185212072,30.480457357160439
1046.0921843687374,-0.12532299084204526,-9.8226010127941095
1092.1843687374749,-0.10542859896500781,-50.143426584339977
1138.2765531062125,-0.086557227254277266,-90.469900621947772
1184.36873747495,-0.068528534040693603,-130.8315168488256
1230.4609218436874,-0.052479936566977546,-171.20261074329434
1276.5531062124248,-0.036804565463034698,148.40427071198133
1322.6452905811623,-0.02386618253473646,107.99814474358107
1368.7374749498997,-0.012737409390719975,67.570455219707696
1414.8296593186374,-0.0034900727399802271,27.134788203027171
1460.9218436873748,0.0037490247740649208,-13.316795048148578
1507.0140280561122,0.0089024493662399687,-53.778177364972088
1553.1062124248497,0.010022216364159783,-94.258406516004243
1599.1983967935871,0.0089053288950155778,-134.7456731770107
1645.2905811623245,0.0064011418619637946,-175.23494456720647
1691.3827655310622,0.00022385326483666577,144.25049413416727
1737.4749498997996,-0.0060853734167847784,103.73415870159802
1783.5671342685371,-0.015704484002605684,63.213905153065753
1829.6593186372745,-0.027546552089685653,22.693202110002915
1875.7515030060119,-0.040941324856950873,-17.825398490315091
1921.8436873747496,-0.058337235224704242,-58.355452516339597
1967.935871743487,-0.076355833586353394,-98.886935321079434
2014.0280561122245,-0.09959755005903366,-139.4174448282518
2060.1202404809619,-0.12220175632114783,-179.94741129607371
2106.2124248496993,-0.14447888229187805,139.52263988348668
2152.3046092184368,-0.17062785099895786,98.988921164936272
2198.3967935871742,-0.19344873591244488,58.461509164507959
2244.4889779559117,-0.22121480270820518,17.941908798603329
2290.5811623246491,-0.24665054162822297,-22.566377588501176
2336.673346693387,-0.27197119520258556,-63.091373824716669
2382.7655310621244,-0.2993567730659038,-103.60078448988065
2428.8577154308618,-0.32404832666166461,-144.12345926417353
2474.9498997995993,-0.34906999257084481,175.34466674850495
2521.0420841683367,-0.37234746463444029,134.83421893801648
2567.1342685370741,-0.3934438372907863,94.306073485360884
2613.2264529058116,-0.41252390332466066,53.754581287084164
2659.318637274549,-0.43112726309031058,13.221593428958371
2705.4108216432865,-0.44573904469984871,-27.318552398706522
2751.5030060120239,-0.45864688734104875,-67.871810986555261
2797.5951903807613,-0.46869144167839993,-108.44505696020468
2843.6873747494992,-0.47397692126084329,-149.05134034317194
2889.7795591182366,-0.47874482031445975,170.33867639604657
2935.8717434869741,-0.47833031163693684,129.68985119328727
2981.9639278557115,-0.47282778086232385,89.006439148152452
3028.056112224449,-0.46480402911493512,48.290980548800157
3074.1482965931864,-0.45176710058141961,7.5438042842227162
3120.2404809619238,-0.4380361259420264,-33.231946679772626
3166.3326653306613,-0.4184993230154691,-74.074559843838202
3212.4248496993987,-0.39638487350482787,-114.97361793557997
3258.5170340681361,-0.37254569982214542,-155.8932375615388
3304.6092184368736,-0.34091490812546654,163.09383211775349
3350.701402805611,-0.30977220416316659,122.0313404216008
3396.7935871743489,-0.27638823703055704,80.852348112638182
3442.8857715430863,-0.24212827358763758,39.6416917095532
3488.9779559118238,-0.20588475496282635,-1.6698380365353245
3535.0701402805612,-0.16880627402318288,-43.062337512461184
3581.1623246492986,-0.13193952672188655,-84.545174736661977
3627.2545090180361,-0.099892772527509499,-126.12905071879661
3673.3466933867735,-0.069206356803779179,-167.80249802254423
3719.4388777555109,-0.041564496578472929,150.43063071967561
3765.5310621242484,-0.018071459962908761,108.57168733595365
3811.6232464929858,-0.0035164331468603605,66.604825178705227
3857.7154308617232,0.0052632830107461918,24.528884529642539
3903.8076152304611,0.0093364552222013914,-17.600542827458206
3949.8997995991986,0.00082981620760654246,-59.830870140327328
3995.991983967936,-0.014759079415879225,-102.12791375794086
4042.0841683366734,-0.039289795454785094,-144.49371444413453
4088.1763527054109,-0.073758635614890211,173.05697274518968
4134.2685370741483,-0.11567209155988994,130.57342582752005
4180.3607214428857,-0.16480759514350987,88.04460694611879
4226.4529058116232,-0.21725411731491584,45.45201169580973
4272.5450901803606,-0.27203266907716744,2.8311620003744622
4318.637274549098,-0.33007450141073924,-39.832342313681316
4364.7294589178355,-0.38253150562895899,-82.569961674559622
4410.8216432865729,-0.43089564058230845,-125.35705437450805
4456.9138276553103,-0.46660522501371682,-168.24602873639355
4503.0060120240478,-0.48671152096797377,148.74265037364012
4549.0981963927852,-0.4936939087776876,105.56307145410931
4595.1903807615226,-0.47337277964927682,62.174673880684608
4641.2825651302601,-0.43061398877678198,18.476789878894223
4687.3747494989984,-0.36283663308292358,-25.598824241281548
4733.4669338677359,-0.27418938571437362,-70.212900094704594
4779.5591182364733,-0.1689871903964601,-115.47013382645356
4825.6513026052107,-0.067473697785837533,-161.58026194689884
4871.7434869739482,-0.00071827067400853336,151.27682407062198
4917.8356713426856,-0.017640699689953791,102.95953562620178
4963.927855711423,-0.19154869496534721,53.467487035829251
5010.0200400801605,-0.60133445989104506,3.0945515227898142
5056.1122244488979,-1.3059654408837418,-47.668824038146923
5102.2044088176353,-2.3107105984428511,-98.067326619799758
5148.2965931863728,-3.5660917562478303,-147.48182187981661
5194.3887775551102,-4.9980551622780354,164.37780747164771
5240.4809619238476,-6.5307147538859427,117.59557483913362
5286.5731462925851,-8.1018339329624656,72.044617960824709
5332.6653306613225,-9.6825480273050246,27.536641947751221
5378.7575150300599,-11.251179946895725,-16.083949813075094
5424.8496993987974,-12.787663948913361,-58.989655392418797
5470.9418837675348,-14.301341502715577,-101.31620179385027
5517.0340681362723,-15.78276785057723,-143.14205837858785
5563.1262525050097,-17.230599359775095,175.39180651387764
5609.2184368737471,-18.660799551997346,134.28689003927167
5655.3106212424846,-20.061323695056476,93.414673320676144
5701.402805611222,-21.45305077998264,52.667070898630669
5747.4949899799603,-22.802453505317242,12.290495213553086
5793.5871743486978,-24.16668573763987,-28.034811052065137
5839.6793587174352,-25.502419802464939,-68.124038503358349
5885.7715430861726,-26.83617897233546,-108.10998368587229
5931.8637274549101,-28.175101478867518,-147.89013347383707
5977.9559118236475,-29.513004935752743,172.36276550045886
6024.0480961923849,-30.881664351693754,132.57137483409369
6070.1402805611224,-32.224795061543112,92.97605911975262
6116.2324649298598,-33.585782169143236,53.444076908784339
6162.3246492985973,-34.94066057671472,13.624760258050088
6208.4168336673347,-36.296297624501022,-25.737116159947561
6254.5090180360721,-37.676008262052626,-65.003563503496963
6300.6012024048096,-39.095462722499349,-104.02958817927127
6346.693386773547,-40.606861784320266,-142.91283705812623
6392.7855711422844,-42.169151076369175,177.85257284081223
6438.8777555110219,-43.711589779642495,138.33291398057258
6484.9699398797593,-45.338549198634077,99.212931937662347
6531.0621242484967,-47.137832501359433,59.55270760842609
6577.1543086172342,-49.020050018393924,20.15173969524983
6623.2464929859716,-50.853364035763775,-19.256059898472152
6669.338677354709,-52.880310182900153,-57.728005293699425
6715.4308617234465,-55.355217223338599,-96.049911811459069
6761.5230460921848,-58.008504078509468,-134.0546542512094
6807.6152304609222,-61.562924191786337,-171.67788477239125
6853.7074148296597,-68.584017624241355,153.53484946096577
6899.7995991983971,-77.634015425209583,121.18469236555285
6945.8917835671346,-77.509672803100983,-91.457261540765671
6991.983967935872,-70.134256623478393,-149.40793002184009
7038.0761523046094,-66.670483814578887,176.51593791111779
7084.1683366733469,-64.570055111517945,142.17831262809506
7130.2605210420843,-63.470341469274558,91.642042931477619
7176.3527054108217,-62.71968498069446,51.532173068279221
7222.4448897795592,-61.412404593776209,10.413112307344594
7268.5370741482966,-60.561146734969064,-24.898998125525438
7314.629258517034,-59.765866220018282,-62.198424662285092
7360.7214428857715,-59.417463617090256,-98.968744313208063
7406.8136272545089,-60.151431069035887,-137.94330588461764
7452.9058116232463,-59.795380856795909,-174.52343022701166
7498.9979959919838,-60.632155945017701,146.16474146047236
7545.0901803607212,-61.000428846082109,106.51380426020292
7591.1823647294586,-61.193443353030176,67.666684927116833
7637.2745490981961,-61.016042337449427,26.446456631229978
7683.3667334669335,-61.281671097700823,-10.771956024447761
7729.4589178356709,-61.162428733632268,-51.505688715686013
7775.5511022044084,-61.523415347831452,-88.869997416769991
7821.6432865731467,-61.967282818303211,-124.27448631233739
7867.7354709418842,-62.680324290452624,-162.4914522234011
7913.8276553106216,-63.916710363371507,166.47969817746537
7959.919839679359,-64.870101209660731,122.96723349577239
8006.0120240480965,-66.395238543763085,84.715251903424672
8052.1042084168339,-68.031203294924097,36.069141906793071
8098.1963927855713,-67.491759944323505,-2.0792091786317854
8144.2885771543088,-68.122405888355061,-40.803532927690895
8190.3807615230462,-69.618869027262235,-75.868924911289881
8236.4729458917827,-70.329877279569516,-112.87098759503611
8282.5651302605202,-71.578616280225944,-137.73822320087075
8328.6573146292594,-74.776355909116518,-170.24514037780813
8374.7494989979969,-75.646858694320386,135.23967807000935
8420.8416833667343,-88.000119901770489,172.75800502701213
8466.9338677354717,-90.858188089505944,-138.63581651505592
8513.0260521042092,-77.407630923668137,-105.49591263562186
8559.1182364729466,-77.06425168312451,176.76218059846269
8605.210420841684,-83.450828057403228,134.18193697800348
8651.3026052104215,-79.742222294029901,96.376606324777825
8697.3947895791589,-76.646501045839358,23.460440852555863
8743.4869739478963,-71.03855845531271,-2.8275743277413241
8789.5791583166338,-71.320507470819038,-47.576885785039224
8835.6713426853712,-68.460825338933347,-81.213692826803594
8881.7635270541086,-67.011787233078437,-117.29826196249265
8927.8557114228461,-66.525758459577162,-146.40447496794371
8973.9478957915835,-67.008068716577469,177.94735544380518
9020.0400801603209,-65.894208195590593,136.13588537935814
9066.1322645290584,-66.794545161631746,89.597965949278844
9112.2244488977958,-65.711713091016989,55.564669005691812
9158.3166332665332,-65.210987088515964,7.7760357015577597
9204.4088176352707,-65.101285807715769,-26.370221314031667
9250.5010020040081,-63.61591434316847,-63.867395833836312
9296.5931863727455,-62.602617378019055,-94.216159926388428
9342.685370741483,-62.481227708722088,-135.77690660554609
9388.7775551102204,-62.974049851145118,-170.00787917838164
9434.8697394789579,-62.953110020746969,154.76232764109747
9480.9619238476953,-62.251533857093193,108.2971814864006
9527.0541082164327,-62.074678020877187,69.070064511681196
9573.1462925851702,-62.541234689976442,30.447566405403325
9619.2384769539076,-62.132805372787644,-7.9800710830607784
9665.330661322645,-61.745879739396145,-48.011034450453892
9711.4228456913825,-61.474915812652135,-82.113690631480779
9757.5150300601199,-60.781570408360324,-118.61706622079882
9803.6072144288573,-61.252623306099267,-155.61742377723556
9849.6993987975948,-61.423165907789233,158.91021989456721
9895.7915831663322,-61.416846046605308,125.21938798330662
9941.8837675350696,-60.988243335318536,86.087180862034728
9987.9759519038071,-61.040256476033264,46.694586459529489
10034.068136272545,-60.859328853066522,4.4735405851346002
10080.160320641282,-60.637735074317952,-33.777565520401069
10126.252505010019,-60.588573692855348,-69.038738325289657
10172.344689378757,-59.813183073945645,-105.69796867734688
10218.436873747494,-60.261152348562348,-141.65982450494465
10264.529058116232,-59.771460128483312,178.0474487688773
10310.621242484969,-60.739584609944856,144.32438605320252
10356.713426853707,-60.673596981200731,101.00733920779479
10402.805611222444,-60.196988837028272,61.85901145824274
10448.897795591183,-60.836926701587664,21.523000507744577
10494.989979959921,-60.358996519474779,-18.41625348298686
10541.082164328658,-59.653443824729862,-58.932183740250821
10587.174348697396,-59.238893291904184,-91.340685200968764
10633.266533066133,-59.880075990581908,-127.92831518666607
10679.35871743487,-60.359958543366403,-165.25617894386349
10725.450901803608,-60.013515235022574,155.71226700675982
10771.543086172345,-59.684064423769541,116.49346140909368
10817.635270541083,-60.828722535050872,73.223116609006098
10863.72745490982,-60.674166093198004,37.345575641458908
10909.819639278558,-60.653164239398315,-2.3394586901763539
10955.911823647295,-60.203150818556082,-38.026539676384118
11002.004008016032,-59.753322336521556,-79.962411957215735
11048.09619238477,-59.208695245346746,-113.11549740366303
11094.188376753507,-60.241918192530328,-155.05536996072095
11140.280561122245,-60.103044957109617,170.37537136867024
11186.372745490982,-60.490214389484692,130.79177875326511
11232.46492985972,-60.848628772808638,91.417347082745408
11278.557114228457,-61.029432291089641,48.369942549795667
11324.649298597195,-61.0621363018968,14.651984818681834
11370.741482965932,-60.693985402504417,-27.171986406996112
11416.833667334669,-60.583319062055068,-63.824260736936253
11462.925851703407,-60.2249196670396,-99.379352758712173
11509.018036072144,-60.617691440797216,-136.21299896083457
11555.110220440882,-60.288489809637404,-174.19342352599571
11601.202404809619,-60.720795314636227,148.63561192427645
11647.294589178357,-61.254185301349914,107.8782383262602
11693.386773547094,-61.620054980166692,65.828851316067414
11739.478957915831,-61.184672685792407,27.877721399753199
11785.571142284569,-61.590561227726091,-12.296728427419019
11831.663326653306,-61.19142301229229,-48.995916207086367
11877.755511022044,-60.782041653093003,-86.656572159586972
11923.847695390781,-61.244217225450889,-126.74293706848293
11969.939879759519,-60.778462150938992,-157.82271520740923
12016.032064128256,-61.207395524872538,162.55863214606714
12062.124248496993,-62.458983817975607,123.46354502792872
12108.216432865731,-62.164586696582653,85.868664063452641
12154.308617234468,-62.056675380577921,48.686793238350134
12200.400801603206,-62.336803634353373,0.84029351132789998
12246.492985971943,-62.220204617719773,-35.061237055301874
12292.585170340681,-61.827991620295421,-73.057272917568127
12338.677354709418,-62.421829966685593,-108.57208378205743
12384.769539078156,-62.457220888982981,-145.10780998432836
12430.861723446893,-62.617191274683272,178.53827653540273
12476.95390781563,-62.505056566773064,143.73537278645355
12523.04609218437,-63.458411012802571,103.31766407377809
12569.138276553107,-63.61871946617773,63.085560454296456
12615.230460921844,-63.528349637594445,21.158343968889398
12661.322645290582,-63.62080198050554,-20.850778369316672
12707.414829659319,-63.941814168411092,-60.677295648146007
12753.507014028057,-63.062660594784177,-93.254459850801453
12799.599198396794,-63.132301709659728,-129.46410528285813
12845.691382765532,-63.347166939428988,-172.51579976507844
12891.783567134269,-63.830575056607422,159.49339425472073
12937.875751503007,-64.627001126147178,124.81735480403105
12983.967935871744,-64.753412994029276,79.519744043986151
13030.060120240481,-65.702487052362258,32.851619325227404
13076.152304609219,-64.087980185493407,1.1954054342993814
13122.244488977956,-64.428502486219486,-38.229952755189373
13168.336673346694,-65.10034335187666,-78.795608390884453
13214.428857715431,-65.352259697199827,-115.07173229929265
13260.521042084169,-65.487051810625459,-147.07425516090572
13306.613226452906,-64.822930759931467,178.43514399908943
13352.705410821643,-66.303635664494252,136.30267455852339
13398.797595190381,-67.08511226170792,102.26027351251486
13444.889779559118,-67.610667991171596,49.261958794281554
13490.981963927856,-67.795311574762977,13.012224692732012
13537.074148296593,-67.615499315104941,-35.593582158868884
13583.166332665331,-66.36068346773861,-70.239811029531609
13629.258517034068,-65.286067653854971,-103.72893710558189
13675.350701402805,-67.451160451187263,-136.28178677682641
13721.442885771543,-66.622400784814133,-168.43094173006054
13767.53507014028,-69.893816865383045,148.42057987226463
13813.627254509018,-68.195233499065367,114.77017522670246
13859.719438877755,-69.408141504343106,74.33497664024577
13905.811623246493,-69.310213232207204,25.584968568456485
13951.90380761523,-69.991686055524113,-10.253703733400329
13997.995991983968,-68.990652799545856,-60.873237733829768
14044.088176352705,-69.681646975244632,-91.030205288108817
14090.180360721442,-68.363433554166534,-114.21463180609172
14136.27254509018,-68.657419132169906,-147.7968414038144
14182.364729458917,-70.79849105408843,160.66531471781195
14228.456913827655,-72.381513891664994,131.27899857678801
14274.549098196392,-72.056957321378405,99.074787989186191
14320.64128256513,-73.769613442311396,53.23998949699903
14366.733466933867,-72.863470515927332,4.2001276003967405
14412.825651302604,-72.292365873591933,-43.400826039008592
14458.917835671342,-73.300014294699977,-86.30044371346591
14505.010020040079,-74.952526187398178,-118.86922321191142
14551.102204408817,-72.055462937233443,-137.182386493423
14597.194388777556,-72.928711452660337,178.52395109283236
14643.286573146293,-75.950953806702373,141.57993583185544
14689.378757515031,-78.360060841518418,121.43569627566782
14735.470941883768,-79.801845328441672,48.164893182121531
14781.563126252506,-78.660796378512757,16.426833630316963
14827.655310621243,-77.757137539166393,-25.724525150848962
14873.747494989981,-79.409958426529599,-77.115621989815267
14919.839679358718,-74.910513289657317,-104.57473720556172
14965.931863727455,-73.562436516736483,-138.99627235743895
15012.024048096193,-79.099379253327299,-142.52386997687432
15058.11623246493,-78.265122296408009,-161.9404446822754
15104.208416833668,-82.606731760532412,-167.59934024846683
15150.300601202405,-84.030382492685291,146.5495469296967
15196.392785571143,-86.966334737575863,-8.7663125411809091
15242.48496993988,-92.637605566035418,-42.385134886911175
15288.577154308618,-89.032631393729289,-95.907938039869961
15334.669338677355,-80.958190883214726,-134.06531728426449
15380.761523046092,-80.906249902105799,-140.86590509030788
15426.85370741483,-86.720130428171117,-118.46877238082524
15472.945891783567,-80.363485843232098,-105.16349473329844
15519.038076152305,-84.974189862239086,-55.649381648356098
15565.130260521042,-78.889142251687673,-117.43176006233141
15611.22244488978,-78.093476221337042,-101.97076235084447
15657.314629258517,-79.252891866722749,-171.55937827258956
15703.406813627254,-78.498093354872523,-167.16932009842111
15749.498997995992,-78.83378702462656,165.887187430501
15795.591182364729,-79.556263610078659,121.73744841638809
15841.683366733467,-83.019838020783752,22.649612595941917
15887.775551102204,-77.524895844540808,11.871539094736118
15933.867735470942,-76.532577687319133,-37.482818347744569
15979.959919839679,-78.09842125948218,-75.55476532546885
16026.052104208416,-73.989946914802715,-131.78845874432582
16072.144288577154,-75.105408228500494,-131.62579878437873
16118.236472945891,-74.029679997592424,-177.81093719400897
16164.328657314629,-73.552835846183143,142.43794269272695
16210.420841683366,-72.332837174229198,88.455530230773263
16256.513026052104,-74.664295399478263,68.793457048663271
